
<<<<<<< HEAD
T1370 001:876 SEGGER J-Link V6.14b Log File (0002ms, 1843ms total)
T1370 001:876 DLL Compiled: Mar  9 2017 08:46:04 (0002ms, 1843ms total)
T1370 001:876 Logging started @ 2017-03-20 21:44 (0002ms, 1843ms total)
T1370 001:878 JLINK_SetWarnOutHandler(...) (0000ms, 1843ms total)
T1370 001:878 JLINK_OpenEx(...)
Firmware: J-Link OB-SAM3U128-V2-NordicSemi compiled Nov 14 2016 16:58:29
Hardware: V1.00
S/N: 682088076WEBSRV Webserver running on local port 19080 (3521ms, 5364ms total)
T1370 001:878   returns O.K. (3521ms, 5364ms total)
T1370 005:399 JLINK_SetErrorOutHandler(...) (0000ms, 5364ms total)
T1370 005:401 JLINK_ExecCommand("ProjectFile = "\\Mac\Home\Documents\EiT-lastebil\rc-car\CODE\DUMMY_FOLDER\rc_car_propritary\pca10040\blank\arm5_no_packs\JLinkSettings.ini"", ...). C:\Program Files (x86)\SEGGER\JLink_V614b\JLinkDevices.xml evaluated successfully.  returns 0x00 (0152ms, 5517ms total)
T1370 005:556 JLINK_ExecCommand("Device = nRF52832_xxAA", ...). Device "NRF52832_XXAA" selected.  returns 0x00 (0008ms, 5525ms total)
T1370 005:564 JLINK_ExecCommand("DisableConnectionTimeout", ...).   returns 0x01 (0000ms, 5525ms total)
T1370 005:564 JLINK_GetHardwareVersion()  returns 0x2710 (0001ms, 5526ms total)
T1370 005:565 JLINK_GetDLLVersion()  returns 61402 (0000ms, 5526ms total)
T1370 005:565 JLINK_GetFirmwareString(...) (0000ms, 5526ms total)
T1370 005:572 JLINK_GetDLLVersion()  returns 61402 (0000ms, 5526ms total)
T1370 005:572 JLINK_GetCompileDateTime() (0000ms, 5526ms total)
T1370 005:574 JLINK_GetFirmwareString(...) (0000ms, 5526ms total)
T1370 005:580 JLINK_GetHardwareVersion()  returns 0x2710 (0000ms, 5526ms total)
T1370 005:587 JLINK_TIF_Select(JLINKARM_TIF_SWD)  returns 0x00 (0002ms, 5528ms total)
T1370 005:589 JLINK_SetSpeed(5000) (0001ms, 5529ms total)
T1370 005:590 JLINK_GetId() >0x108 TIF>Found SWD-DP with ID 0x2BA01477 >0x0D TIF> >0x28 TIF> >0x0D TIF> >0x28 TIF> >0x0D TIF> >0x28 TIF> >0x0D TIF> >0x28 TIF> >0x0D TIF> >0x28 TIF> >0x0D TIF> >0x28 TIF> >0x35 TIF> >0x35 TIF> >0x0D TIF> >0x28 TIF> >0x35 TIF> >0x35 TIF> >0x108 TIF>Found SWD-DP with ID 0x2BA01477 >0x0D TIF> >0x28 TIF> >0x0D TIF> >0x28 TIF> >0x0D TIF> >0x28 TIF> >0x0D TIF> >0x28 TIF> >0x35 TIF> >0x0D TIF> >0x28 TIF> >0x0D TIF> >0x28 TIF> >0x35 TIF> >0x35 TIF> >0x35 TIF>
AP-IDR: 0x24770011, Type: AHB-APAHB-AP ROM: 0xE00FF000 (Base addr. of first ROM table) >0x0D TIF> >0x28 TIF> >0x0D TIF> >0x28 TIF> >0x0D TIF> >0x28 TIF> >0x35 TIF> >0x35 TIF> >0x0D TIF> >0x28 TIF> >0x35 TIF> >0x35 TIF>Found Cortex-M4 r0p1, Little endian. -- CPU_ReadMem(4 bytes @ 0xE000EDF0) -- CPU_WriteMem(4 bytes @ 0xE000EDF0) -- CPU_ReadMem(4 bytes @ 0xE0002000)FPUnit: 6 code (BP) slots and 2 literal slots -- CPU_ReadMem(4 bytes @ 0xE000EDFC) -- CPU_WriteMem(4 bytes @ 0xE000EDFC)
 -- CPU_ReadMem(4 bytes @ 0xE0001000) -- CPU_WriteMem(4 bytes @ 0xE0001000) -- CPU_ReadMem(4 bytes @ 0xE000ED88) -- CPU_WriteMem(4 bytes @ 0xE000ED88) -- CPU_ReadMem(4 bytes @ 0xE000ED88) -- CPU_WriteMem(4 bytes @ 0xE000ED88)CoreSight components:ROMTbl 0 @ E00FF000 -- CPU_ReadMem(16 bytes @ 0xE00FF000) -- CPU_ReadMem(16 bytes @ 0xE000EFF0) -- CPU_ReadMem(16 bytes @ 0xE000EFE0)ROMTbl 0 [0]: FFF0F000, CID: B105E00D, PID: 000BB00C SCS -- CPU_ReadMem(16 bytes @ 0xE0001FF0)
 -- CPU_ReadMem(16 bytes @ 0xE0001FE0)ROMTbl 0 [1]: FFF02000, CID: B105E00D, PID: 003BB002 DWT -- CPU_ReadMem(16 bytes @ 0xE0002FF0) -- CPU_ReadMem(16 bytes @ 0xE0002FE0)ROMTbl 0 [2]: FFF03000, CID: B105E00D, PID: 002BB003 FPB -- CPU_ReadMem(16 bytes @ 0xE0000FF0) -- CPU_ReadMem(16 bytes @ 0xE0000FE0)ROMTbl 0 [3]: FFF01000, CID: B105E00D, PID: 003BB001 ITM -- CPU_ReadMem(16 bytes @ 0xE00FF010) -- CPU_ReadMem(16 bytes @ 0xE0040FF0) -- CPU_ReadMem(16 bytes @ 0xE0040FE0)
ROMTbl 0 [4]: FFF41000, CID: B105900D, PID: 000BB9A1 TPIU -- CPU_ReadMem(16 bytes @ 0xE0041FF0) -- CPU_ReadMem(16 bytes @ 0xE0041FE0)ROMTbl 0 [5]: FFF42000, CID: B105900D, PID: 000BB925 ETM >0x35 TIF>  returns 0x2BA01477 (0113ms, 5642ms total)
T1370 005:703 JLINK_GetDLLVersion()  returns 61402 (0000ms, 5642ms total)
T1370 005:703 JLINK_CORE_GetFound()  returns 0xE0000FF (0000ms, 5642ms total)
T1370 005:703 JLINK_GetDebugInfo(0x100 = JLINKARM_ROM_TABLE_ADDR_INDEX) -- Value=0xE00FF000  returns 0x00 (0001ms, 5643ms total)
T1370 005:706 JLINK_GetDebugInfo(0x100 = JLINKARM_ROM_TABLE_ADDR_INDEX) -- Value=0xE00FF000  returns 0x00 (0000ms, 5643ms total)
T1370 005:706 JLINK_GetDebugInfo(0x101 = JLINKARM_DEBUG_INFO_ETM_ADDR_INDEX) -- Value=0xE0041000  returns 0x00 (0000ms, 5643ms total)
T1370 005:707 JLINK_GetDebugInfo(0x102 = JLINKARM_DEBUG_INFO_MTB_ADDR_INDEX) -- Value=0x00000000  returns 0x00 (0000ms, 5644ms total)
T1370 005:707 JLINK_GetDebugInfo(0x103 = JLINKARM_DEBUG_INFO_TPIU_ADDR_INDEX) -- Value=0xE0040000  returns 0x00 (0000ms, 5644ms total)
T1370 005:707 JLINK_GetDebugInfo(0x104 = JLINKARM_DEBUG_INFO_ITM_ADDR_INDEX) -- Value=0xE0000000  returns 0x00 (0000ms, 5644ms total)
T1370 005:708 JLINK_GetDebugInfo(0x105 = JLINKARM_DEBUG_INFO_DWT_ADDR_INDEX) -- Value=0xE0001000  returns 0x00 (0000ms, 5645ms total)
T1370 005:708 JLINK_GetDebugInfo(0x106 = JLINKARM_DEBUG_INFO_FPB_ADDR_INDEX) -- Value=0xE0002000  returns 0x00 (0000ms, 5645ms total)
T1370 005:708 JLINK_GetDebugInfo(0x107 = JLINKARM_DEBUG_INFO_NVIC_ADDR_INDEX) -- Value=0xE000E000  returns 0x00 (0001ms, 5646ms total)
T1370 005:709 JLINK_GetDebugInfo(0x10C = JLINKARM_DEBUG_INFO_DBG_ADDR_INDEX) -- Value=0xE000EDF0  returns 0x00 (0000ms, 5646ms total)
T1370 005:709 JLINK_ReadMemU32(0xE000EF40, 0x0001 Items, ...) -- CPU is running -- CPU_ReadMem(4 bytes @ 0xE000EF40) - Data: 21 00 11 10  returns 0x01 (0004ms, 5650ms total)
T1370 005:713 JLINK_ReadMemU32(0xE000EF44, 0x0001 Items, ...) -- CPU is running -- CPU_ReadMem(4 bytes @ 0xE000EF44) - Data: 11 00 00 11  returns 0x01 (0001ms, 5651ms total)
T1370 005:714 JLINK_ReadMemU32(0xE000ED00, 0x0001 Items, ...) -- CPU is running -- CPU_ReadMem(4 bytes @ 0xE000ED00) - Data: 41 C2 0F 41  returns 0x01 (0002ms, 5653ms total)
T1370 005:716 JLINK_SetResetType(JLINKARM_CM3_RESET_TYPE_NORMAL)  returns JLINKARM_CM3_RESET_TYPE_NORMAL (0000ms, 5653ms total)
T1370 005:716 JLINK_Reset() -- CPU is running -- CPU_WriteMem(4 bytes @ 0xE000EDF0) -- CPU is running -- CPU_WriteMem(4 bytes @ 0xE000EDFC) >0x35 TIF> -- CPU is running -- CPU_WriteMem(4 bytes @ 0xE000ED0C) >0x0D TIF> >0x28 TIF> -- CPU is running -- CPU_ReadMem(4 bytes @ 0xE000EDF0) -- CPU is running -- CPU_ReadMem(4 bytes @ 0xE000EDF0) -- CPU is running -- CPU_WriteMem(4 bytes @ 0xE000EDF0) -- CPU is running -- CPU_WriteMem(4 bytes @ 0xE000EDFC) -- CPU is running -- CPU_ReadMem(4 bytes @ 0xE000EDF0)
 -- CPU_WriteMem(4 bytes @ 0xE0002000) -- CPU_ReadMem(4 bytes @ 0xE000EDFC) -- CPU_ReadMem(4 bytes @ 0xE0001000) (0077ms, 5730ms total)
T1370 005:793 JLINK_Halt()  returns 0x00 (0001ms, 5731ms total)
T1370 005:794 JLINK_IsHalted()  returns TRUE (0000ms, 5731ms total)
T1370 005:794 JLINK_ReadMemU32(0xE000EDF0, 0x0001 Items, ...) -- CPU_ReadMem(4 bytes @ 0xE000EDF0) - Data: 03 00 03 00  returns 0x01 (0001ms, 5732ms total)
T1370 005:795 JLINK_WriteU32(0xE000EDF0, 0xA05F0003) -- CPU_WriteMem(4 bytes @ 0xE000EDF0)  returns 0x00 (0001ms, 5733ms total)
T1370 005:796 JLINK_WriteU32(0xE000EDFC, 0x01000000) -- CPU_WriteMem(4 bytes @ 0xE000EDFC)  returns 0x00 (0002ms, 5735ms total)
T1370 005:807 JLINK_GetHWStatus(...)  returns 0x00 (0001ms, 5736ms total)
T1370 005:818 JLINK_GetNumBPUnits(Type = 0xFFFFFF00)  returns 0x06 (0001ms, 5737ms total)
T1370 005:819 JLINK_GetNumBPUnits(Type = 0xF0)  returns 0x2000 (0000ms, 5737ms total)
T1370 005:819 JLINK_GetNumWPUnits()  returns 0x04 (0000ms, 5737ms total)
T1370 005:825 JLINK_GetSpeed()  returns 0x3E8 (0000ms, 5737ms total)
T1370 005:833 JLINK_ReadMemU32(0xE000E004, 0x0001 Items, ...) -- CPU_ReadMem(4 bytes @ 0xE000E004) - Data: 01 00 00 00  returns 0x01 (0001ms, 5738ms total)
T1370 005:834 JLINK_ReadMemU32(0xE000E004, 0x0001 Items, ...) -- CPU_ReadMem(4 bytes @ 0xE000E004) - Data: 01 00 00 00  returns 0x01 (0001ms, 5739ms total)
T1370 005:835 JLINK_WriteMem(0xE0001000, 0x001C Bytes, ...) - Data: 01 00 00 00 00 00 00 00 00 00 00 00 00 00 00 00 ... -- CPU_WriteMem(28 bytes @ 0xE0001000)  returns 0x1C (0002ms, 5741ms total)
T1370 005:837 JLINK_ReadMem (0xE0001000, 0x001C Bytes, ...) -- CPU_ReadMem(28 bytes @ 0xE0001000) - Data: 01 00 00 40 00 00 00 00 00 00 00 00 00 00 00 00 ...  returns 0x00 (0002ms, 5743ms total)
T1370 005:839 JLINK_Halt()  returns 0x00 (0000ms, 5743ms total)
T1370 005:839 JLINK_IsHalted()  returns TRUE (0000ms, 5743ms total)
T1370 005:841 JLINK_WriteMem(0x20000000, 0x0228 Bytes, ...) - Data: 00 BE 0A E0 0D 78 2D 06 68 40 08 24 40 00 00 D3 ... -- CPU_WriteMem(552 bytes @ 0x20000000)  returns 0x228 (0009ms, 5752ms total)
T1370 005:851 JLINK_WriteReg(R0, 0x00000000)  returns 0x00 (0000ms, 5752ms total)
T1370 005:851 JLINK_WriteReg(R1, 0x03D09000)  returns 0x00 (0000ms, 5752ms total)
T1370 005:851 JLINK_WriteReg(R2, 0x00000001)  returns 0x00 (0000ms, 5752ms total)
T1370 005:851 JLINK_WriteReg(R3, 0x00000000)  returns 0x00 (0001ms, 5753ms total)
T1370 005:852 JLINK_WriteReg(R4, 0x00000000)  returns 0x00 (0000ms, 5753ms total)
T1370 005:852 JLINK_WriteReg(R5, 0x00000000)  returns 0x00 (0000ms, 5753ms total)
T1370 005:852 JLINK_WriteReg(R6, 0x00000000)  returns 0x00 (0001ms, 5754ms total)
T1370 005:853 JLINK_WriteReg(R7, 0x00000000)  returns 0x00 (0000ms, 5754ms total)
T1370 005:853 JLINK_WriteReg(R8, 0x00000000)  returns 0x00 (0000ms, 5754ms total)
T1370 005:853 JLINK_WriteReg(R9, 0x20000224)  returns 0x00 (0000ms, 5754ms total)
T1370 005:854 JLINK_WriteReg(R10, 0x00000000)  returns 0x00 (0000ms, 5755ms total)
T1370 005:854 JLINK_WriteReg(R11, 0x00000000)  returns 0x00 (0000ms, 5755ms total)
T1370 005:854 JLINK_WriteReg(R12, 0x00000000)  returns 0x00 (0000ms, 5755ms total)
T1370 005:854 JLINK_WriteReg(R13 (SP), 0x20004000)  returns 0x00 (0001ms, 5756ms total)
T1370 005:855 JLINK_WriteReg(R14, 0x20000001)  returns 0x00 (0000ms, 5756ms total)
T1370 005:855 JLINK_WriteReg(R15 (PC), 0x2000003C)  returns 0x00 (0000ms, 5756ms total)
T1370 005:855 JLINK_WriteReg(XPSR, 0x01000000)  returns 0x00 (0000ms, 5756ms total)
T1370 005:856 JLINK_WriteReg(MSP, 0x20004000)  returns 0x00 (0000ms, 5757ms total)
T1370 005:856 JLINK_WriteReg(PSP, 0x20004000)  returns 0x00 (0000ms, 5757ms total)
T1370 005:856 JLINK_WriteReg(CFBP, 0x00000000)  returns 0x00 (0000ms, 5757ms total)
T1370 005:856 JLINK_SetBPEx(Addr = 0x20000000, Type = 0xFFFFFFF2) -- CPU_ReadMem(2 bytes @ 0x20000000)  returns 0x00000001 (0001ms, 5758ms total)
T1370 005:858 JLINK_Go() -- CPU_WriteMem(2 bytes @ 0x20000000) -- CPU_ReadMem(4 bytes @ 0xE0001000) -- CPU_WriteMem(4 bytes @ 0xE0002008) -- CPU_WriteMem(4 bytes @ 0xE000200C) -- CPU_WriteMem(4 bytes @ 0xE0002010) -- CPU_WriteMem(4 bytes @ 0xE0002014) -- CPU_WriteMem(4 bytes @ 0xE0002018) -- CPU_WriteMem(4 bytes @ 0xE000201C) -- CPU_WriteMem(4 bytes @ 0xE0001004) (0010ms, 5769ms total)
T1370 005:868 JLINK_IsHalted() -- CPU_ReadMem(2 bytes @ 0x20000000)  returns TRUE (0007ms, 5776ms total)
T1370 005:876 JLINK_ReadReg(R15 (PC))  returns 0x20000000 (0000ms, 5769ms total)
T1370 005:876 JLINK_ClrBPEx(BPHandle = 0x00000001)  returns 0x00 (0000ms, 5769ms total)
T1370 005:876 JLINK_ReadReg(R0)  returns 0x00000000 (0000ms, 5769ms total)
T1370 005:877 JLINK_WriteReg(R0, 0x00000000)  returns 0x00 (0000ms, 5770ms total)
T1370 005:877 JLINK_WriteReg(R1, 0x00001000)  returns 0x00 (0000ms, 5770ms total)
T1370 005:878 JLINK_WriteReg(R2, 0x000000FF)  returns 0x00 (0000ms, 5771ms total)
T1370 005:878 JLINK_WriteReg(R3, 0x00000000)  returns 0x00 (0000ms, 5771ms total)
T1370 005:878 JLINK_WriteReg(R4, 0x00000000)  returns 0x00 (0000ms, 5771ms total)
T1370 005:878 JLINK_WriteReg(R5, 0x00000000)  returns 0x00 (0001ms, 5772ms total)
T1370 005:879 JLINK_WriteReg(R6, 0x00000000)  returns 0x00 (0000ms, 5772ms total)
T1370 005:879 JLINK_WriteReg(R7, 0x00000000)  returns 0x00 (0000ms, 5772ms total)
T1370 005:879 JLINK_WriteReg(R8, 0x00000000)  returns 0x00 (0000ms, 5772ms total)
T1370 005:880 JLINK_WriteReg(R9, 0x20000224)  returns 0x00 (0000ms, 5773ms total)
T1370 005:880 JLINK_WriteReg(R10, 0x00000000)  returns 0x00 (0000ms, 5773ms total)
T1370 005:880 JLINK_WriteReg(R11, 0x00000000)  returns 0x00 (0000ms, 5773ms total)
T1370 005:880 JLINK_WriteReg(R12, 0x00000000)  returns 0x00 (0001ms, 5774ms total)
T1370 005:881 JLINK_WriteReg(R13 (SP), 0x20004000)  returns 0x00 (0000ms, 5774ms total)
T1370 005:881 JLINK_WriteReg(R14, 0x20000001)  returns 0x00 (0000ms, 5774ms total)
T1370 005:881 JLINK_WriteReg(R15 (PC), 0x20000110)  returns 0x00 (0000ms, 5774ms total)
T1370 005:882 JLINK_WriteReg(XPSR, 0x01000000)  returns 0x00 (0000ms, 5775ms total)
T1370 005:882 JLINK_WriteReg(MSP, 0x20004000)  returns 0x00 (0000ms, 5775ms total)
T1370 005:882 JLINK_WriteReg(PSP, 0x20004000)  returns 0x00 (0000ms, 5775ms total)
T1370 005:882 JLINK_WriteReg(CFBP, 0x00000000)  returns 0x00 (0001ms, 5776ms total)
T1370 005:883 JLINK_SetBPEx(Addr = 0x20000000, Type = 0xFFFFFFF2)  returns 0x00000002 (0000ms, 5776ms total)
T1370 005:883 JLINK_Go() -- CPU_ReadMem(4 bytes @ 0xE0001000) (0004ms, 5780ms total)
T1370 005:887 JLINK_IsHalted() -- CPU_ReadMem(2 bytes @ 0x20000000)  returns TRUE (0010ms, 5790ms total)
T1370 005:897 JLINK_ReadReg(R15 (PC))  returns 0x20000000 (0000ms, 5780ms total)
T1370 005:897 JLINK_ClrBPEx(BPHandle = 0x00000002)  returns 0x00 (0001ms, 5781ms total)
T1370 005:898 JLINK_ReadReg(R0)  returns 0x00000001 (0000ms, 5781ms total)
T1370 005:898 JLINK_WriteReg(R0, 0x00000000)  returns 0x00 (0000ms, 5781ms total)
T1370 005:898 JLINK_WriteReg(R1, 0x00001000)  returns 0x00 (0001ms, 5782ms total)
T1370 005:899 JLINK_WriteReg(R2, 0x000000FF)  returns 0x00 (0000ms, 5782ms total)
T1370 005:899 JLINK_WriteReg(R3, 0x00000000)  returns 0x00 (0000ms, 5782ms total)
T1370 005:899 JLINK_WriteReg(R4, 0x00000000)  returns 0x00 (0000ms, 5782ms total)
T1370 005:899 JLINK_WriteReg(R5, 0x00000000)  returns 0x00 (0001ms, 5783ms total)
T1370 005:900 JLINK_WriteReg(R6, 0x00000000)  returns 0x00 (0000ms, 5783ms total)
T1370 005:900 JLINK_WriteReg(R7, 0x00000000)  returns 0x00 (0000ms, 5783ms total)
T1370 005:900 JLINK_WriteReg(R8, 0x00000000)  returns 0x00 (0001ms, 5784ms total)
T1370 005:901 JLINK_WriteReg(R9, 0x20000224)  returns 0x00 (0000ms, 5784ms total)
T1370 005:901 JLINK_WriteReg(R10, 0x00000000)  returns 0x00 (0000ms, 5784ms total)
T1370 005:901 JLINK_WriteReg(R11, 0x00000000)  returns 0x00 (0000ms, 5784ms total)
T1370 005:901 JLINK_WriteReg(R12, 0x00000000)  returns 0x00 (0001ms, 5785ms total)
T1370 005:902 JLINK_WriteReg(R13 (SP), 0x20004000)  returns 0x00 (0000ms, 5785ms total)
T1370 005:902 JLINK_WriteReg(R14, 0x20000001)  returns 0x00 (0000ms, 5785ms total)
T1370 005:902 JLINK_WriteReg(R15 (PC), 0x200000CE)  returns 0x00 (0001ms, 5786ms total)
T1370 005:903 JLINK_WriteReg(XPSR, 0x01000000)  returns 0x00 (0000ms, 5786ms total)
T1370 005:903 JLINK_WriteReg(MSP, 0x20004000)  returns 0x00 (0000ms, 5786ms total)
T1370 005:903 JLINK_WriteReg(PSP, 0x20004000)  returns 0x00 (0000ms, 5786ms total)
T1370 005:904 JLINK_WriteReg(CFBP, 0x00000000)  returns 0x00 (0000ms, 5787ms total)
T1370 005:904 JLINK_SetBPEx(Addr = 0x20000000, Type = 0xFFFFFFF2)  returns 0x00000003 (0000ms, 5787ms total)
T1370 005:904 JLINK_Go() -- CPU_ReadMem(4 bytes @ 0xE0001000) (0003ms, 5790ms total)
T1370 005:907 JLINK_IsHalted()  returns FALSE (0001ms, 5791ms total)
T1370 005:953 JLINK_IsHalted() -- CPU_ReadMem(2 bytes @ 0x20000000)  returns TRUE (0008ms, 5798ms total)
T1370 005:961 JLINK_ReadReg(R15 (PC))  returns 0x20000000 (0000ms, 5790ms total)
T1370 005:961 JLINK_ClrBPEx(BPHandle = 0x00000003)  returns 0x00 (0000ms, 5790ms total)
T1370 005:961 JLINK_ReadReg(R0)  returns 0x00000000 (0001ms, 5791ms total)
T1370 005:963 JLINK_WriteReg(R0, 0x00001000)  returns 0x00 (0001ms, 5792ms total)
T1370 005:964 JLINK_WriteReg(R1, 0x00001000)  returns 0x00 (0001ms, 5793ms total)
T1370 005:965 JLINK_WriteReg(R2, 0x000000FF)  returns 0x00 (0001ms, 5794ms total)
T1370 005:966 JLINK_WriteReg(R3, 0x00000000)  returns 0x00 (0000ms, 5794ms total)
T1370 005:966 JLINK_WriteReg(R4, 0x00000000)  returns 0x00 (0001ms, 5795ms total)
T1370 005:967 JLINK_WriteReg(R5, 0x00000000)  returns 0x00 (0000ms, 5795ms total)
T1370 005:967 JLINK_WriteReg(R6, 0x00000000)  returns 0x00 (0000ms, 5795ms total)
T1370 005:967 JLINK_WriteReg(R7, 0x00000000)  returns 0x00 (0000ms, 5795ms total)
T1370 005:967 JLINK_WriteReg(R8, 0x00000000)  returns 0x00 (0001ms, 5796ms total)
T1370 005:968 JLINK_WriteReg(R9, 0x20000224)  returns 0x00 (0000ms, 5796ms total)
T1370 005:968 JLINK_WriteReg(R10, 0x00000000)  returns 0x00 (0000ms, 5796ms total)
T1370 005:968 JLINK_WriteReg(R11, 0x00000000)  returns 0x00 (0001ms, 5797ms total)
T1370 005:969 JLINK_WriteReg(R12, 0x00000000)  returns 0x00 (0000ms, 5797ms total)
T1370 005:969 JLINK_WriteReg(R13 (SP), 0x20004000)  returns 0x00 (0000ms, 5797ms total)
T1370 005:969 JLINK_WriteReg(R14, 0x20000001)  returns 0x00 (0000ms, 5797ms total)
T1370 005:969 JLINK_WriteReg(R15 (PC), 0x20000110)  returns 0x00 (0001ms, 5798ms total)
T1370 005:970 JLINK_WriteReg(XPSR, 0x01000000)  returns 0x00 (0000ms, 5798ms total)
T1370 005:970 JLINK_WriteReg(MSP, 0x20004000)  returns 0x00 (0000ms, 5798ms total)
T1370 005:970 JLINK_WriteReg(PSP, 0x20004000)  returns 0x00 (0000ms, 5798ms total)
T1370 005:970 JLINK_WriteReg(CFBP, 0x00000000)  returns 0x00 (0001ms, 5799ms total)
T1370 005:971 JLINK_SetBPEx(Addr = 0x20000000, Type = 0xFFFFFFF2)  returns 0x00000004 (0000ms, 5799ms total)
T1370 005:971 JLINK_Go() -- CPU_ReadMem(4 bytes @ 0xE0001000) (0004ms, 5803ms total)
T1370 005:975 JLINK_IsHalted() -- CPU_ReadMem(2 bytes @ 0x20000000)  returns TRUE (0010ms, 5813ms total)
T1370 005:985 JLINK_ReadReg(R15 (PC))  returns 0x20000000 (0000ms, 5803ms total)
T1370 005:985 JLINK_ClrBPEx(BPHandle = 0x00000004)  returns 0x00 (0000ms, 5803ms total)
T1370 005:985 JLINK_ReadReg(R0)  returns 0x00000001 (0000ms, 5803ms total)
T1370 005:985 JLINK_WriteReg(R0, 0x00001000)  returns 0x00 (0001ms, 5804ms total)
T1370 005:986 JLINK_WriteReg(R1, 0x00001000)  returns 0x00 (0000ms, 5804ms total)
T1370 005:986 JLINK_WriteReg(R2, 0x000000FF)  returns 0x00 (0000ms, 5804ms total)
T1370 005:986 JLINK_WriteReg(R3, 0x00000000)  returns 0x00 (0001ms, 5805ms total)
T1370 005:987 JLINK_WriteReg(R4, 0x00000000)  returns 0x00 (0000ms, 5805ms total)
T1370 005:987 JLINK_WriteReg(R5, 0x00000000)  returns 0x00 (0000ms, 5805ms total)
T1370 005:987 JLINK_WriteReg(R6, 0x00000000)  returns 0x00 (0001ms, 5806ms total)
T1370 005:988 JLINK_WriteReg(R7, 0x00000000)  returns 0x00 (0000ms, 5806ms total)
T1370 005:988 JLINK_WriteReg(R8, 0x00000000)  returns 0x00 (0000ms, 5806ms total)
T1370 005:988 JLINK_WriteReg(R9, 0x20000224)  returns 0x00 (0000ms, 5806ms total)
T1370 005:989 JLINK_WriteReg(R10, 0x00000000)  returns 0x00 (0000ms, 5807ms total)
T1370 005:989 JLINK_WriteReg(R11, 0x00000000)  returns 0x00 (0000ms, 5807ms total)
T1370 005:989 JLINK_WriteReg(R12, 0x00000000)  returns 0x00 (0000ms, 5807ms total)
T1370 005:989 JLINK_WriteReg(R13 (SP), 0x20004000)  returns 0x00 (0001ms, 5808ms total)
T1370 005:990 JLINK_WriteReg(R14, 0x20000001)  returns 0x00 (0000ms, 5808ms total)
T1370 005:990 JLINK_WriteReg(R15 (PC), 0x200000CE)  returns 0x00 (0000ms, 5808ms total)
T1370 005:990 JLINK_WriteReg(XPSR, 0x01000000)  returns 0x00 (0000ms, 5808ms total)
T1370 005:990 JLINK_WriteReg(MSP, 0x20004000)  returns 0x00 (0001ms, 5809ms total)
T1370 005:991 JLINK_WriteReg(PSP, 0x20004000)  returns 0x00 (0000ms, 5809ms total)
T1370 005:991 JLINK_WriteReg(CFBP, 0x00000000)  returns 0x00 (0000ms, 5809ms total)
T1370 005:991 JLINK_SetBPEx(Addr = 0x20000000, Type = 0xFFFFFFF2)  returns 0x00000005 (0001ms, 5810ms total)
T1370 005:992 JLINK_Go() -- CPU_ReadMem(4 bytes @ 0xE0001000) (0003ms, 5813ms total)
T1370 005:995 JLINK_IsHalted()  returns FALSE (0001ms, 5814ms total)
T1370 005:998 JLINK_IsHalted() -- CPU_ReadMem(2 bytes @ 0x20000000)  returns TRUE (0008ms, 5821ms total)
T1370 006:007 JLINK_ReadReg(R15 (PC))  returns 0x20000000 (0000ms, 5813ms total)
T1370 006:007 JLINK_ClrBPEx(BPHandle = 0x00000005)  returns 0x00 (0000ms, 5813ms total)
T1370 006:007 JLINK_ReadReg(R0)  returns 0x00000000 (0000ms, 5813ms total)
T1370 006:008 JLINK_WriteReg(R0, 0x00002000)  returns 0x00 (0001ms, 5814ms total)
T1370 006:009 JLINK_WriteReg(R1, 0x00001000)  returns 0x00 (0000ms, 5814ms total)
T1370 006:009 JLINK_WriteReg(R2, 0x000000FF)  returns 0x00 (0000ms, 5814ms total)
T1370 006:009 JLINK_WriteReg(R3, 0x00000000)  returns 0x00 (0001ms, 5815ms total)
T1370 006:010 JLINK_WriteReg(R4, 0x00000000)  returns 0x00 (0000ms, 5815ms total)
T1370 006:010 JLINK_WriteReg(R5, 0x00000000)  returns 0x00 (0000ms, 5815ms total)
T1370 006:010 JLINK_WriteReg(R6, 0x00000000)  returns 0x00 (0001ms, 5816ms total)
T1370 006:011 JLINK_WriteReg(R7, 0x00000000)  returns 0x00 (0000ms, 5816ms total)
T1370 006:011 JLINK_WriteReg(R8, 0x00000000)  returns 0x00 (0000ms, 5816ms total)
T1370 006:011 JLINK_WriteReg(R9, 0x20000224)  returns 0x00 (0000ms, 5816ms total)
T1370 006:011 JLINK_WriteReg(R10, 0x00000000)  returns 0x00 (0001ms, 5817ms total)
T1370 006:012 JLINK_WriteReg(R11, 0x00000000)  returns 0x00 (0000ms, 5817ms total)
T1370 006:012 JLINK_WriteReg(R12, 0x00000000)  returns 0x00 (0000ms, 5817ms total)
T1370 006:012 JLINK_WriteReg(R13 (SP), 0x20004000)  returns 0x00 (0001ms, 5818ms total)
T1370 006:013 JLINK_WriteReg(R14, 0x20000001)  returns 0x00 (0000ms, 5818ms total)
T1370 006:013 JLINK_WriteReg(R15 (PC), 0x20000110)  returns 0x00 (0000ms, 5818ms total)
T1370 006:013 JLINK_WriteReg(XPSR, 0x01000000)  returns 0x00 (0001ms, 5819ms total)
T1370 006:014 JLINK_WriteReg(MSP, 0x20004000)  returns 0x00 (0000ms, 5819ms total)
T1370 006:014 JLINK_WriteReg(PSP, 0x20004000)  returns 0x00 (0000ms, 5819ms total)
T1370 006:014 JLINK_WriteReg(CFBP, 0x00000000)  returns 0x00 (0001ms, 5820ms total)
T1370 006:015 JLINK_SetBPEx(Addr = 0x20000000, Type = 0xFFFFFFF2)  returns 0x00000006 (0000ms, 5820ms total)
T1370 006:015 JLINK_Go() -- CPU_ReadMem(4 bytes @ 0xE0001000) (0004ms, 5824ms total)
T1370 006:019 JLINK_IsHalted() -- CPU_ReadMem(2 bytes @ 0x20000000)  returns TRUE (0008ms, 5832ms total)
T1370 006:027 JLINK_ReadReg(R15 (PC))  returns 0x20000000 (0000ms, 5824ms total)
T1370 006:028 JLINK_ClrBPEx(BPHandle = 0x00000006)  returns 0x00 (0000ms, 5825ms total)
T1370 006:028 JLINK_ReadReg(R0)  returns 0x00000001 (0000ms, 5825ms total)
T1370 006:028 JLINK_WriteReg(R0, 0x00002000)  returns 0x00 (0000ms, 5825ms total)
T1370 006:028 JLINK_WriteReg(R1, 0x00001000)  returns 0x00 (0001ms, 5826ms total)
T1370 006:029 JLINK_WriteReg(R2, 0x000000FF)  returns 0x00 (0000ms, 5826ms total)
T1370 006:029 JLINK_WriteReg(R3, 0x00000000)  returns 0x00 (0000ms, 5826ms total)
T1370 006:029 JLINK_WriteReg(R4, 0x00000000)  returns 0x00 (0000ms, 5826ms total)
T1370 006:030 JLINK_WriteReg(R5, 0x00000000)  returns 0x00 (0000ms, 5827ms total)
T1370 006:030 JLINK_WriteReg(R6, 0x00000000)  returns 0x00 (0001ms, 5828ms total)
T1370 006:031 JLINK_WriteReg(R7, 0x00000000)  returns 0x00 (0000ms, 5828ms total)
T1370 006:031 JLINK_WriteReg(R8, 0x00000000)  returns 0x00 (0001ms, 5829ms total)
T1370 006:032 JLINK_WriteReg(R9, 0x20000224)  returns 0x00 (0000ms, 5829ms total)
T1370 006:032 JLINK_WriteReg(R10, 0x00000000)  returns 0x00 (0001ms, 5830ms total)
T1370 006:033 JLINK_WriteReg(R11, 0x00000000)  returns 0x00 (0000ms, 5830ms total)
T1370 006:033 JLINK_WriteReg(R12, 0x00000000)  returns 0x00 (0000ms, 5830ms total)
T1370 006:033 JLINK_WriteReg(R13 (SP), 0x20004000)  returns 0x00 (0001ms, 5831ms total)
T1370 006:034 JLINK_WriteReg(R14, 0x20000001)  returns 0x00 (0000ms, 5831ms total)
T1370 006:034 JLINK_WriteReg(R15 (PC), 0x200000CE)  returns 0x00 (0001ms, 5832ms total)
T1370 006:035 JLINK_WriteReg(XPSR, 0x01000000)  returns 0x00 (0000ms, 5832ms total)
T1370 006:035 JLINK_WriteReg(MSP, 0x20004000)  returns 0x00 (0000ms, 5832ms total)
T1370 006:035 JLINK_WriteReg(PSP, 0x20004000)  returns 0x00 (0000ms, 5832ms total)
T1370 006:036 JLINK_WriteReg(CFBP, 0x00000000)  returns 0x00 (0000ms, 5832ms total)
T1370 006:036 JLINK_SetBPEx(Addr = 0x20000000, Type = 0xFFFFFFF2)  returns 0x00000007 (0000ms, 5832ms total)
T1370 006:036 JLINK_Go() -- CPU_ReadMem(4 bytes @ 0xE0001000) (0004ms, 5836ms total)
T1370 006:040 JLINK_IsHalted()  returns FALSE (0001ms, 5837ms total)
T1370 006:045 JLINK_IsHalted() -- CPU_ReadMem(2 bytes @ 0x20000000)  returns TRUE (0008ms, 5844ms total)
T1370 006:053 JLINK_ReadReg(R15 (PC))  returns 0x20000000 (0000ms, 5836ms total)
T1370 006:053 JLINK_ClrBPEx(BPHandle = 0x00000007)  returns 0x00 (0000ms, 5836ms total)
T1370 006:053 JLINK_ReadReg(R0)  returns 0x00000000 (0001ms, 5837ms total)
T1370 006:054 JLINK_WriteReg(R0, 0x00000001)  returns 0x00 (0000ms, 5837ms total)
T1370 006:054 JLINK_WriteReg(R1, 0x00001000)  returns 0x00 (0000ms, 5837ms total)
T1370 006:055 JLINK_WriteReg(R2, 0x000000FF)  returns 0x00 (0000ms, 5838ms total)
T1370 006:055 JLINK_WriteReg(R3, 0x00000000)  returns 0x00 (0000ms, 5838ms total)
T1370 006:055 JLINK_WriteReg(R4, 0x00000000)  returns 0x00 (0000ms, 5838ms total)
T1370 006:055 JLINK_WriteReg(R5, 0x00000000)  returns 0x00 (0001ms, 5839ms total)
T1370 006:056 JLINK_WriteReg(R6, 0x00000000)  returns 0x00 (0000ms, 5839ms total)
T1370 006:056 JLINK_WriteReg(R7, 0x00000000)  returns 0x00 (0000ms, 5839ms total)
T1370 006:056 JLINK_WriteReg(R8, 0x00000000)  returns 0x00 (0001ms, 5840ms total)
T1370 006:057 JLINK_WriteReg(R9, 0x20000224)  returns 0x00 (0000ms, 5840ms total)
T1370 006:057 JLINK_WriteReg(R10, 0x00000000)  returns 0x00 (0000ms, 5840ms total)
T1370 006:057 JLINK_WriteReg(R11, 0x00000000)  returns 0x00 (0000ms, 5840ms total)
T1370 006:058 JLINK_WriteReg(R12, 0x00000000)  returns 0x00 (0000ms, 5841ms total)
T1370 006:058 JLINK_WriteReg(R13 (SP), 0x20004000)  returns 0x00 (0000ms, 5841ms total)
T1370 006:058 JLINK_WriteReg(R14, 0x20000001)  returns 0x00 (0000ms, 5841ms total)
T1370 006:058 JLINK_WriteReg(R15 (PC), 0x20000084)  returns 0x00 (0001ms, 5842ms total)
T1370 006:059 JLINK_WriteReg(XPSR, 0x01000000)  returns 0x00 (0000ms, 5842ms total)
T1370 006:059 JLINK_WriteReg(MSP, 0x20004000)  returns 0x00 (0000ms, 5842ms total)
T1370 006:059 JLINK_WriteReg(PSP, 0x20004000)  returns 0x00 (0000ms, 5842ms total)
T1370 006:059 JLINK_WriteReg(CFBP, 0x00000000)  returns 0x00 (0001ms, 5843ms total)
T1370 006:060 JLINK_SetBPEx(Addr = 0x20000000, Type = 0xFFFFFFF2)  returns 0x00000008 (0000ms, 5843ms total)
T1370 006:060 JLINK_Go() -- CPU_ReadMem(4 bytes @ 0xE0001000) (0004ms, 5847ms total)
T1370 006:065 JLINK_IsHalted() -- CPU_ReadMem(2 bytes @ 0x20000000)  returns TRUE (0008ms, 5856ms total)
T1370 006:073 JLINK_ReadReg(R15 (PC))  returns 0x20000000 (0001ms, 5849ms total)
T1370 006:074 JLINK_ClrBPEx(BPHandle = 0x00000008)  returns 0x00 (0000ms, 5849ms total)
T1370 006:074 JLINK_ReadReg(R0)  returns 0x00000000 (0000ms, 5849ms total)
T1370 006:129 JLINK_WriteMem(0x20000000, 0x0228 Bytes, ...) - Data: 00 BE 0A E0 0D 78 2D 06 68 40 08 24 40 00 00 D3 ... -- CPU_WriteMem(552 bytes @ 0x20000000)  returns 0x228 (0008ms, 5857ms total)
T1370 006:138 JLINK_WriteReg(R0, 0x00000000)  returns 0x00 (0000ms, 5858ms total)
T1370 006:138 JLINK_WriteReg(R1, 0x03D09000)  returns 0x00 (0000ms, 5858ms total)
T1370 006:138 JLINK_WriteReg(R2, 0x00000002)  returns 0x00 (0000ms, 5858ms total)
T1370 006:139 JLINK_WriteReg(R3, 0x00000000)  returns 0x00 (0000ms, 5859ms total)
T1370 006:139 JLINK_WriteReg(R4, 0x00000000)  returns 0x00 (0000ms, 5859ms total)
T1370 006:139 JLINK_WriteReg(R5, 0x00000000)  returns 0x00 (0000ms, 5859ms total)
T1370 006:139 JLINK_WriteReg(R6, 0x00000000)  returns 0x00 (0001ms, 5860ms total)
T1370 006:140 JLINK_WriteReg(R7, 0x00000000)  returns 0x00 (0000ms, 5860ms total)
T1370 006:140 JLINK_WriteReg(R8, 0x00000000)  returns 0x00 (0000ms, 5860ms total)
T1370 006:140 JLINK_WriteReg(R9, 0x20000224)  returns 0x00 (0000ms, 5860ms total)
T1370 006:141 JLINK_WriteReg(R10, 0x00000000)  returns 0x00 (0000ms, 5861ms total)
T1370 006:141 JLINK_WriteReg(R11, 0x00000000)  returns 0x00 (0000ms, 5861ms total)
T1370 006:141 JLINK_WriteReg(R12, 0x00000000)  returns 0x00 (0000ms, 5861ms total)
T1370 006:141 JLINK_WriteReg(R13 (SP), 0x20004000)  returns 0x00 (0001ms, 5862ms total)
T1370 006:142 JLINK_WriteReg(R14, 0x20000001)  returns 0x00 (0000ms, 5862ms total)
T1370 006:142 JLINK_WriteReg(R15 (PC), 0x2000003C)  returns 0x00 (0000ms, 5862ms total)
T1370 006:142 JLINK_WriteReg(XPSR, 0x01000000)  returns 0x00 (0001ms, 5863ms total)
T1370 006:143 JLINK_WriteReg(MSP, 0x20004000)  returns 0x00 (0000ms, 5863ms total)
T1370 006:143 JLINK_WriteReg(PSP, 0x20004000)  returns 0x00 (0000ms, 5863ms total)
T1370 006:143 JLINK_WriteReg(CFBP, 0x00000000)  returns 0x00 (0000ms, 5863ms total)
T1370 006:143 JLINK_SetBPEx(Addr = 0x20000000, Type = 0xFFFFFFF2) -- CPU_ReadMem(2 bytes @ 0x20000000)  returns 0x00000009 (0002ms, 5865ms total)
T1370 006:145 JLINK_Go() -- CPU_WriteMem(2 bytes @ 0x20000000) -- CPU_ReadMem(4 bytes @ 0xE0001000) (0005ms, 5870ms total)
T1370 006:150 JLINK_IsHalted() -- CPU_ReadMem(2 bytes @ 0x20000000)  returns TRUE (0009ms, 5879ms total)
T1370 006:159 JLINK_ReadReg(R15 (PC))  returns 0x20000000 (0000ms, 5870ms total)
T1370 006:160 JLINK_ClrBPEx(BPHandle = 0x00000009)  returns 0x00 (0000ms, 5871ms total)
T1370 006:160 JLINK_ReadReg(R0)  returns 0x00000000 (0000ms, 5871ms total)
T1370 006:161 JLINK_WriteMem(0x20000228, 0x0DD8 Bytes, ...) - Data: E0 24 00 20 15 04 00 00 1D 04 00 00 1F 04 00 00 ... -- CPU_WriteMem(3544 bytes @ 0x20000228)  returns 0xDD8 (0048ms, 5919ms total)
T1370 006:209 JLINK_WriteMem(0x20001000, 0x0228 Bytes, ...) - Data: 00 77 03 E0 4F F0 FF 32 46 F8 23 20 5B 1C DB B2 ... -- CPU_WriteMem(552 bytes @ 0x20001000)  returns 0x228 (0008ms, 5927ms total)
T1370 006:218 JLINK_WriteReg(R0, 0x00000000)  returns 0x00 (0000ms, 5928ms total)
T1370 006:218 JLINK_WriteReg(R1, 0x00001000)  returns 0x00 (0000ms, 5928ms total)
T1370 006:218 JLINK_WriteReg(R2, 0x20000228)  returns 0x00 (0000ms, 5928ms total)
T1370 006:219 JLINK_WriteReg(R3, 0x00000000)  returns 0x00 (0000ms, 5929ms total)
T1370 006:219 JLINK_WriteReg(R4, 0x00000000)  returns 0x00 (0000ms, 5929ms total)
T1370 006:219 JLINK_WriteReg(R5, 0x00000000)  returns 0x00 (0001ms, 5930ms total)
T1370 006:220 JLINK_WriteReg(R6, 0x00000000)  returns 0x00 (0000ms, 5930ms total)
T1370 006:220 JLINK_WriteReg(R7, 0x00000000)  returns 0x00 (0000ms, 5930ms total)
T1370 006:220 JLINK_WriteReg(R8, 0x00000000)  returns 0x00 (0001ms, 5931ms total)
T1370 006:221 JLINK_WriteReg(R9, 0x20000224)  returns 0x00 (0000ms, 5931ms total)
T1370 006:221 JLINK_WriteReg(R10, 0x00000000)  returns 0x00 (0000ms, 5931ms total)
T1370 006:221 JLINK_WriteReg(R11, 0x00000000)  returns 0x00 (0000ms, 5931ms total)
T1370 006:221 JLINK_WriteReg(R12, 0x00000000)  returns 0x00 (0001ms, 5932ms total)
T1370 006:222 JLINK_WriteReg(R13 (SP), 0x20004000)  returns 0x00 (0000ms, 5932ms total)
T1370 006:222 JLINK_WriteReg(R14, 0x20000001)  returns 0x00 (0000ms, 5932ms total)
T1370 006:222 JLINK_WriteReg(R15 (PC), 0x2000014C)  returns 0x00 (0001ms, 5933ms total)
T1370 006:223 JLINK_WriteReg(XPSR, 0x01000000)  returns 0x00 (0000ms, 5933ms total)
T1370 006:223 JLINK_WriteReg(MSP, 0x20004000)  returns 0x00 (0000ms, 5933ms total)
T1370 006:223 JLINK_WriteReg(PSP, 0x20004000)  returns 0x00 (0000ms, 5933ms total)
T1370 006:223 JLINK_WriteReg(CFBP, 0x00000000)  returns 0x00 (0001ms, 5934ms total)
T1370 006:224 JLINK_SetBPEx(Addr = 0x20000000, Type = 0xFFFFFFF2)  returns 0x0000000A (0000ms, 5934ms total)
T1370 006:224 JLINK_Go() -- CPU_ReadMem(4 bytes @ 0xE0001000) (0004ms, 5938ms total)
T1370 006:228 JLINK_IsHalted()  returns FALSE (0002ms, 5940ms total)
T1370 006:234 JLINK_IsHalted()  returns FALSE (0001ms, 5939ms total)
T1370 006:237 JLINK_IsHalted()  returns FALSE (0001ms, 5939ms total)
T1370 006:240 JLINK_IsHalted()  returns FALSE (0001ms, 5939ms total)
T1370 006:244 JLINK_IsHalted()  returns FALSE (0001ms, 5939ms total)
T1370 006:247 JLINK_IsHalted()  returns FALSE (0001ms, 5939ms total)
T1370 006:250 JLINK_IsHalted()  returns FALSE (0001ms, 5939ms total)
T1370 006:254 JLINK_IsHalted()  returns FALSE (0001ms, 5939ms total)
T1370 006:257 JLINK_IsHalted()  returns FALSE (0001ms, 5939ms total)
T1370 006:260 JLINK_IsHalted()  returns FALSE (0001ms, 5939ms total)
T1370 006:263 JLINK_IsHalted()  returns FALSE (0001ms, 5939ms total)
T1370 006:267 JLINK_IsHalted()  returns FALSE (0001ms, 5939ms total)
T1370 006:270 JLINK_IsHalted()  returns FALSE (0001ms, 5939ms total)
T1370 006:273 JLINK_IsHalted()  returns FALSE (0001ms, 5939ms total)
T1370 006:276 JLINK_IsHalted()  returns FALSE (0001ms, 5939ms total)
T1370 006:279 JLINK_IsHalted()  returns FALSE (0001ms, 5939ms total)
T1370 006:283 JLINK_IsHalted()  returns FALSE (0001ms, 5939ms total)
T1370 006:287 JLINK_IsHalted()  returns FALSE (0001ms, 5939ms total)
T1370 006:290 JLINK_IsHalted()  returns FALSE (0001ms, 5939ms total)
T1370 006:293 JLINK_IsHalted()  returns FALSE (0001ms, 5939ms total)
T1370 006:296 JLINK_IsHalted()  returns FALSE (0001ms, 5939ms total)
T1370 006:299 JLINK_IsHalted() -- CPU_ReadMem(2 bytes @ 0x20000000)  returns TRUE (0007ms, 5945ms total)
T1370 006:307 JLINK_ReadReg(R15 (PC))  returns 0x20000000 (0000ms, 5938ms total)
T1370 006:307 JLINK_ClrBPEx(BPHandle = 0x0000000A)  returns 0x00 (0000ms, 5938ms total)
T1370 006:307 JLINK_ReadReg(R0)  returns 0x00000000 (0000ms, 5938ms total)
T1370 006:308 JLINK_WriteMem(0x20000228, 0x0DD8 Bytes, ...) - Data: BB FC 12 20 00 F0 B8 FC 13 20 00 F0 B5 FC BD E8 ... -- CPU_WriteMem(3544 bytes @ 0x20000228)  returns 0xDD8 (0048ms, 5986ms total)
T1370 006:356 JLINK_WriteMem(0x20001000, 0x0228 Bytes, ...) - Data: 18 05 62 7E E1 68 88 54 60 7E 40 1C 60 76 70 BD ... -- CPU_WriteMem(552 bytes @ 0x20001000)  returns 0x228 (0009ms, 5995ms total)
T1370 006:365 JLINK_WriteReg(R0, 0x00001000)  returns 0x00 (0000ms, 5995ms total)
T1370 006:365 JLINK_WriteReg(R1, 0x00001000)  returns 0x00 (0000ms, 5995ms total)
T1370 006:366 JLINK_WriteReg(R2, 0x20000228)  returns 0x00 (0000ms, 5996ms total)
T1370 006:366 JLINK_WriteReg(R3, 0x00000000)  returns 0x00 (0000ms, 5996ms total)
T1370 006:366 JLINK_WriteReg(R4, 0x00000000)  returns 0x00 (0000ms, 5996ms total)
T1370 006:366 JLINK_WriteReg(R5, 0x00000000)  returns 0x00 (0001ms, 5997ms total)
T1370 006:367 JLINK_WriteReg(R6, 0x00000000)  returns 0x00 (0000ms, 5997ms total)
T1370 006:367 JLINK_WriteReg(R7, 0x00000000)  returns 0x00 (0000ms, 5997ms total)
T1370 006:367 JLINK_WriteReg(R8, 0x00000000)  returns 0x00 (0001ms, 5998ms total)
T1370 006:368 JLINK_WriteReg(R9, 0x20000224)  returns 0x00 (0000ms, 5998ms total)
T1370 006:368 JLINK_WriteReg(R10, 0x00000000)  returns 0x00 (0000ms, 5998ms total)
T1370 006:368 JLINK_WriteReg(R11, 0x00000000)  returns 0x00 (0000ms, 5998ms total)
T1370 006:368 JLINK_WriteReg(R12, 0x00000000)  returns 0x00 (0001ms, 5999ms total)
T1370 006:369 JLINK_WriteReg(R13 (SP), 0x20004000)  returns 0x00 (0000ms, 5999ms total)
T1370 006:369 JLINK_WriteReg(R14, 0x20000001)  returns 0x00 (0000ms, 5999ms total)
T1370 006:369 JLINK_WriteReg(R15 (PC), 0x2000014C)  returns 0x00 (0001ms, 6000ms total)
T1370 006:370 JLINK_WriteReg(XPSR, 0x01000000)  returns 0x00 (0000ms, 6000ms total)
T1370 006:370 JLINK_WriteReg(MSP, 0x20004000)  returns 0x00 (0000ms, 6000ms total)
T1370 006:370 JLINK_WriteReg(PSP, 0x20004000)  returns 0x00 (0000ms, 6000ms total)
T1370 006:370 JLINK_WriteReg(CFBP, 0x00000000)  returns 0x00 (0001ms, 6001ms total)
T1370 006:371 JLINK_SetBPEx(Addr = 0x20000000, Type = 0xFFFFFFF2)  returns 0x0000000B (0000ms, 6001ms total)
T1370 006:371 JLINK_Go() -- CPU_ReadMem(4 bytes @ 0xE0001000) (0004ms, 6005ms total)
T1370 006:375 JLINK_IsHalted()  returns FALSE (0001ms, 6006ms total)
T1370 006:380 JLINK_IsHalted()  returns FALSE (0001ms, 6006ms total)
T1370 006:383 JLINK_IsHalted()  returns FALSE (0001ms, 6006ms total)
T1370 006:388 JLINK_IsHalted()  returns FALSE (0001ms, 6006ms total)
T1370 006:391 JLINK_IsHalted()  returns FALSE (0001ms, 6006ms total)
T1370 006:397 JLINK_IsHalted()  returns FALSE (0001ms, 6006ms total)
T1370 006:400 JLINK_IsHalted()  returns FALSE (0001ms, 6006ms total)
T1370 006:403 JLINK_IsHalted()  returns FALSE (0002ms, 6007ms total)
T1370 006:407 JLINK_IsHalted()  returns FALSE (0001ms, 6006ms total)
T1370 006:410 JLINK_IsHalted()  returns FALSE (0001ms, 6006ms total)
T1370 006:413 JLINK_IsHalted()  returns FALSE (0001ms, 6006ms total)
T1370 006:416 JLINK_IsHalted()  returns FALSE (0001ms, 6006ms total)
T1370 006:419 JLINK_IsHalted()  returns FALSE (0001ms, 6006ms total)
T1370 006:422 JLINK_IsHalted()  returns FALSE (0002ms, 6007ms total)
T1370 006:427 JLINK_IsHalted()  returns FALSE (0001ms, 6006ms total)
T1370 006:430 JLINK_IsHalted()  returns FALSE (0001ms, 6006ms total)
T1370 006:433 JLINK_IsHalted()  returns FALSE (0001ms, 6006ms total)
T1370 006:436 JLINK_IsHalted()  returns FALSE (0001ms, 6006ms total)
T1370 006:439 JLINK_IsHalted()  returns FALSE (0001ms, 6006ms total)
T1370 006:443 JLINK_IsHalted()  returns FALSE (0001ms, 6006ms total)
T1370 006:446 JLINK_IsHalted() -- CPU_ReadMem(2 bytes @ 0x20000000)  returns TRUE (0008ms, 6013ms total)
T1370 006:454 JLINK_ReadReg(R15 (PC))  returns 0x20000000 (0000ms, 6005ms total)
T1370 006:454 JLINK_ClrBPEx(BPHandle = 0x0000000B)  returns 0x00 (0000ms, 6005ms total)
T1370 006:455 JLINK_ReadReg(R0)  returns 0x00000000 (0000ms, 6006ms total)
T1370 006:456 JLINK_WriteMem(0x20000228, 0x0DD8 Bytes, ...) - Data: 08 28 01 D3 00 20 60 62 BD E8 10 40 01 20 FE F7 ... -- CPU_WriteMem(3544 bytes @ 0x20000228)  returns 0xDD8 (0048ms, 6054ms total)
T1370 006:504 JLINK_WriteMem(0x20001000, 0x0228 Bytes, ...) - Data: FF FF FF FF FF FF FF FF FF FF FF FF FF FF FF FF ... -- CPU_WriteMem(552 bytes @ 0x20001000)  returns 0x228 (0009ms, 6063ms total)
T1370 006:513 JLINK_WriteReg(R0, 0x00002000)  returns 0x00 (0000ms, 6063ms total)
T1370 006:513 JLINK_WriteReg(R1, 0x0000047C)  returns 0x00 (0001ms, 6064ms total)
T1370 006:514 JLINK_WriteReg(R2, 0x20000228)  returns 0x00 (0000ms, 6064ms total)
T1370 006:514 JLINK_WriteReg(R3, 0x00000000)  returns 0x00 (0000ms, 6064ms total)
T1370 006:514 JLINK_WriteReg(R4, 0x00000000)  returns 0x00 (0000ms, 6064ms total)
T1370 006:515 JLINK_WriteReg(R5, 0x00000000)  returns 0x00 (0000ms, 6065ms total)
T1370 006:515 JLINK_WriteReg(R6, 0x00000000)  returns 0x00 (0000ms, 6065ms total)
T1370 006:515 JLINK_WriteReg(R7, 0x00000000)  returns 0x00 (0000ms, 6065ms total)
T1370 006:515 JLINK_WriteReg(R8, 0x00000000)  returns 0x00 (0001ms, 6066ms total)
T1370 006:516 JLINK_WriteReg(R9, 0x20000224)  returns 0x00 (0000ms, 6066ms total)
T1370 006:516 JLINK_WriteReg(R10, 0x00000000)  returns 0x00 (0000ms, 6066ms total)
T1370 006:516 JLINK_WriteReg(R11, 0x00000000)  returns 0x00 (0001ms, 6067ms total)
T1370 006:517 JLINK_WriteReg(R12, 0x00000000)  returns 0x00 (0000ms, 6067ms total)
T1370 006:517 JLINK_WriteReg(R13 (SP), 0x20004000)  returns 0x00 (0000ms, 6067ms total)
T1370 006:517 JLINK_WriteReg(R14, 0x20000001)  returns 0x00 (0000ms, 6067ms total)
T1370 006:518 JLINK_WriteReg(R15 (PC), 0x2000014C)  returns 0x00 (0000ms, 6068ms total)
T1370 006:518 JLINK_WriteReg(XPSR, 0x01000000)  returns 0x00 (0000ms, 6068ms total)
T1370 006:518 JLINK_WriteReg(MSP, 0x20004000)  returns 0x00 (0000ms, 6068ms total)
T1370 006:518 JLINK_WriteReg(PSP, 0x20004000)  returns 0x00 (0001ms, 6069ms total)
T1370 006:519 JLINK_WriteReg(CFBP, 0x00000000)  returns 0x00 (0000ms, 6069ms total)
T1370 006:519 JLINK_SetBPEx(Addr = 0x20000000, Type = 0xFFFFFFF2)  returns 0x0000000C (0000ms, 6069ms total)
T1370 006:519 JLINK_Go() -- CPU_ReadMem(4 bytes @ 0xE0001000) (0006ms, 6075ms total)
T1370 006:525 JLINK_IsHalted()  returns FALSE (0001ms, 6076ms total)
T1370 006:531 JLINK_IsHalted()  returns FALSE (0001ms, 6076ms total)
T1370 006:534 JLINK_IsHalted()  returns FALSE (0001ms, 6076ms total)
T1370 006:537 JLINK_IsHalted()  returns FALSE (0001ms, 6076ms total)
T1370 006:541 JLINK_IsHalted()  returns FALSE (0001ms, 6076ms total)
T1370 006:546 JLINK_IsHalted() -- CPU_ReadMem(2 bytes @ 0x20000000)  returns TRUE (0008ms, 6083ms total)
T1370 006:554 JLINK_ReadReg(R15 (PC))  returns 0x20000000 (0000ms, 6075ms total)
T1370 006:554 JLINK_ClrBPEx(BPHandle = 0x0000000C)  returns 0x00 (0000ms, 6075ms total)
T1370 006:554 JLINK_ReadReg(R0)  returns 0x00000000 (0001ms, 6076ms total)
T1370 006:555 JLINK_WriteReg(R0, 0x00000002)  returns 0x00 (0000ms, 6076ms total)
T1370 006:555 JLINK_WriteReg(R1, 0x0000047C)  returns 0x00 (0000ms, 6076ms total)
T1370 006:555 JLINK_WriteReg(R2, 0x20000228)  returns 0x00 (0001ms, 6077ms total)
T1370 006:556 JLINK_WriteReg(R3, 0x00000000)  returns 0x00 (0000ms, 6077ms total)
T1370 006:556 JLINK_WriteReg(R4, 0x00000000)  returns 0x00 (0000ms, 6077ms total)
T1370 006:556 JLINK_WriteReg(R5, 0x00000000)  returns 0x00 (0000ms, 6077ms total)
T1370 006:557 JLINK_WriteReg(R6, 0x00000000)  returns 0x00 (0000ms, 6078ms total)
T1370 006:557 JLINK_WriteReg(R7, 0x00000000)  returns 0x00 (0000ms, 6078ms total)
T1370 006:557 JLINK_WriteReg(R8, 0x00000000)  returns 0x00 (0000ms, 6078ms total)
T1370 006:557 JLINK_WriteReg(R9, 0x20000224)  returns 0x00 (0001ms, 6079ms total)
T1370 006:558 JLINK_WriteReg(R10, 0x00000000)  returns 0x00 (0000ms, 6079ms total)
T1370 006:558 JLINK_WriteReg(R11, 0x00000000)  returns 0x00 (0000ms, 6079ms total)
T1370 006:559 JLINK_WriteReg(R12, 0x00000000)  returns 0x00 (0000ms, 6080ms total)
T1370 006:559 JLINK_WriteReg(R13 (SP), 0x20004000)  returns 0x00 (0001ms, 6081ms total)
T1370 006:560 JLINK_WriteReg(R14, 0x20000001)  returns 0x00 (0000ms, 6081ms total)
T1370 006:560 JLINK_WriteReg(R15 (PC), 0x20000084)  returns 0x00 (0001ms, 6082ms total)
T1370 006:561 JLINK_WriteReg(XPSR, 0x01000000)  returns 0x00 (0000ms, 6082ms total)
T1370 006:561 JLINK_WriteReg(MSP, 0x20004000)  returns 0x00 (0000ms, 6082ms total)
T1370 006:561 JLINK_WriteReg(PSP, 0x20004000)  returns 0x00 (0001ms, 6083ms total)
T1370 006:562 JLINK_WriteReg(CFBP, 0x00000000)  returns 0x00 (0000ms, 6083ms total)
T1370 006:562 JLINK_SetBPEx(Addr = 0x20000000, Type = 0xFFFFFFF2)  returns 0x0000000D (0000ms, 6083ms total)
T1370 006:562 JLINK_Go() -- CPU_ReadMem(4 bytes @ 0xE0001000) (0006ms, 6089ms total)
T1370 006:568 JLINK_IsHalted() -- CPU_ReadMem(2 bytes @ 0x20000000)  returns TRUE (0008ms, 6097ms total)
T1370 006:576 JLINK_ReadReg(R15 (PC))  returns 0x20000000 (0000ms, 6089ms total)
T1370 006:576 JLINK_ClrBPEx(BPHandle = 0x0000000D)  returns 0x00 (0000ms, 6089ms total)
T1370 006:576 JLINK_ReadReg(R0)  returns 0x00000000 (0001ms, 6090ms total)
T1370 006:632 JLINK_WriteMem(0x20000000, 0x0228 Bytes, ...) - Data: 00 BE 0A E0 0D 78 2D 06 68 40 08 24 40 00 00 D3 ... -- CPU_WriteMem(552 bytes @ 0x20000000)  returns 0x228 (0009ms, 6099ms total)
T1370 006:641 JLINK_WriteReg(R0, 0x00000000)  returns 0x00 (0000ms, 6099ms total)
T1370 006:642 JLINK_WriteReg(R1, 0x03D09000)  returns 0x00 (0000ms, 6100ms total)
T1370 006:642 JLINK_WriteReg(R2, 0x00000003)  returns 0x00 (0000ms, 6100ms total)
T1370 006:642 JLINK_WriteReg(R3, 0x00000000)  returns 0x00 (0001ms, 6101ms total)
T1370 006:643 JLINK_WriteReg(R4, 0x00000000)  returns 0x00 (0001ms, 6102ms total)
T1370 006:644 JLINK_WriteReg(R5, 0x00000000)  returns 0x00 (0000ms, 6102ms total)
T1370 006:645 JLINK_WriteReg(R6, 0x00000000)  returns 0x00 (0000ms, 6103ms total)
T1370 006:646 JLINK_WriteReg(R7, 0x00000000)  returns 0x00 (0000ms, 6104ms total)
T1370 006:646 JLINK_WriteReg(R8, 0x00000000)  returns 0x00 (0000ms, 6104ms total)
T1370 006:646 JLINK_WriteReg(R9, 0x20000224)  returns 0x00 (0000ms, 6104ms total)
T1370 006:647 JLINK_WriteReg(R10, 0x00000000)  returns 0x00 (0000ms, 6105ms total)
T1370 006:647 JLINK_WriteReg(R11, 0x00000000)  returns 0x00 (0000ms, 6105ms total)
T1370 006:647 JLINK_WriteReg(R12, 0x00000000)  returns 0x00 (0000ms, 6105ms total)
T1370 006:647 JLINK_WriteReg(R13 (SP), 0x20004000)  returns 0x00 (0001ms, 6106ms total)
T1370 006:648 JLINK_WriteReg(R14, 0x20000001)  returns 0x00 (0000ms, 6106ms total)
T1370 006:648 JLINK_WriteReg(R15 (PC), 0x2000003C)  returns 0x00 (0000ms, 6106ms total)
T1370 006:648 JLINK_WriteReg(XPSR, 0x01000000)  returns 0x00 (0001ms, 6107ms total)
T1370 006:649 JLINK_WriteReg(MSP, 0x20004000)  returns 0x00 (0000ms, 6107ms total)
T1370 006:649 JLINK_WriteReg(PSP, 0x20004000)  returns 0x00 (0000ms, 6107ms total)
T1370 006:649 JLINK_WriteReg(CFBP, 0x00000000)  returns 0x00 (0000ms, 6107ms total)
T1370 006:649 JLINK_SetBPEx(Addr = 0x20000000, Type = 0xFFFFFFF2) -- CPU_ReadMem(2 bytes @ 0x20000000)  returns 0x0000000E (0002ms, 6109ms total)
T1370 006:651 JLINK_Go() -- CPU_WriteMem(2 bytes @ 0x20000000) -- CPU_ReadMem(4 bytes @ 0xE0001000) (0004ms, 6113ms total)
T1370 006:655 JLINK_IsHalted() -- CPU_ReadMem(2 bytes @ 0x20000000)  returns TRUE (0008ms, 6121ms total)
T1370 006:664 JLINK_ReadReg(R15 (PC))  returns 0x20000000 (0000ms, 6113ms total)
T1370 006:664 JLINK_ClrBPEx(BPHandle = 0x0000000E)  returns 0x00 (0000ms, 6113ms total)
T1370 006:664 JLINK_ReadReg(R0)  returns 0x00000000 (0000ms, 6113ms total)
T1370 006:665 JLINK_WriteMem(0x20000228, 0x0DD8 Bytes, ...) - Data: E0 24 00 20 15 04 00 00 1D 04 00 00 1F 04 00 00 ... -- CPU_WriteMem(3544 bytes @ 0x20000228)  returns 0xDD8 (0048ms, 6162ms total)
T1370 006:713 JLINK_WriteMem(0x20001000, 0x0228 Bytes, ...) - Data: 00 77 03 E0 4F F0 FF 32 46 F8 23 20 5B 1C DB B2 ... -- CPU_WriteMem(552 bytes @ 0x20001000)  returns 0x228 (0008ms, 6170ms total)
T1370 006:721 JLINK_WriteReg(R0, 0x00000000)  returns 0x00 (0001ms, 6171ms total)
T1370 006:722 JLINK_WriteReg(R1, 0x00001000)  returns 0x00 (0000ms, 6171ms total)
T1370 006:722 JLINK_WriteReg(R2, 0x20000228)  returns 0x00 (0000ms, 6171ms total)
T1370 006:722 JLINK_WriteReg(R3, 0x00000000)  returns 0x00 (0001ms, 6172ms total)
T1370 006:723 JLINK_WriteReg(R4, 0x00000000)  returns 0x00 (0000ms, 6172ms total)
T1370 006:723 JLINK_WriteReg(R5, 0x00000000)  returns 0x00 (0000ms, 6172ms total)
T1370 006:723 JLINK_WriteReg(R6, 0x00000000)  returns 0x00 (0001ms, 6173ms total)
T1370 006:724 JLINK_WriteReg(R7, 0x00000000)  returns 0x00 (0000ms, 6173ms total)
T1370 006:724 JLINK_WriteReg(R8, 0x00000000)  returns 0x00 (0000ms, 6173ms total)
T1370 006:724 JLINK_WriteReg(R9, 0x20000224)  returns 0x00 (0001ms, 6174ms total)
T1370 006:725 JLINK_WriteReg(R10, 0x00000000)  returns 0x00 (0000ms, 6174ms total)
T1370 006:725 JLINK_WriteReg(R11, 0x00000000)  returns 0x00 (0000ms, 6174ms total)
T1370 006:726 JLINK_WriteReg(R12, 0x00000000)  returns 0x00 (0000ms, 6175ms total)
T1370 006:726 JLINK_WriteReg(R13 (SP), 0x20004000)  returns 0x00 (0000ms, 6175ms total)
T1370 006:726 JLINK_WriteReg(R14, 0x20000001)  returns 0x00 (0000ms, 6175ms total)
T1370 006:726 JLINK_WriteReg(R15 (PC), 0x200001BE)  returns 0x00 (0001ms, 6176ms total)
T1370 006:727 JLINK_WriteReg(XPSR, 0x01000000)  returns 0x00 (0000ms, 6176ms total)
T1370 006:727 JLINK_WriteReg(MSP, 0x20004000)  returns 0x00 (0000ms, 6176ms total)
T1370 006:727 JLINK_WriteReg(PSP, 0x20004000)  returns 0x00 (0001ms, 6177ms total)
T1370 006:728 JLINK_WriteReg(CFBP, 0x00000000)  returns 0x00 (0000ms, 6177ms total)
T1370 006:728 JLINK_SetBPEx(Addr = 0x20000000, Type = 0xFFFFFFF2)  returns 0x0000000F (0000ms, 6177ms total)
T1370 006:728 JLINK_Go() -- CPU_ReadMem(4 bytes @ 0xE0001000) (0004ms, 6181ms total)
T1370 006:733 JLINK_IsHalted() -- CPU_ReadMem(2 bytes @ 0x20000000)  returns TRUE (0007ms, 6189ms total)
T1370 006:741 JLINK_ReadReg(R15 (PC))  returns 0x20000000 (0000ms, 6182ms total)
T1370 006:741 JLINK_ClrBPEx(BPHandle = 0x0000000F)  returns 0x00 (0000ms, 6182ms total)
T1370 006:741 JLINK_ReadReg(R0)  returns 0x00001000 (0001ms, 6183ms total)
T1370 006:743 JLINK_WriteMem(0x20000228, 0x0DD8 Bytes, ...) - Data: BB FC 12 20 00 F0 B8 FC 13 20 00 F0 B5 FC BD E8 ... -- CPU_WriteMem(3544 bytes @ 0x20000228)  returns 0xDD8 (0048ms, 6231ms total)
T1370 006:791 JLINK_WriteMem(0x20001000, 0x0228 Bytes, ...) - Data: 18 05 62 7E E1 68 88 54 60 7E 40 1C 60 76 70 BD ... -- CPU_WriteMem(552 bytes @ 0x20001000)  returns 0x228 (0009ms, 6240ms total)
T1370 006:800 JLINK_WriteReg(R0, 0x00001000)  returns 0x00 (0000ms, 6240ms total)
T1370 006:800 JLINK_WriteReg(R1, 0x00001000)  returns 0x00 (0000ms, 6240ms total)
T1370 006:801 JLINK_WriteReg(R2, 0x20000228)  returns 0x00 (0000ms, 6241ms total)
T1370 006:801 JLINK_WriteReg(R3, 0x00000000)  returns 0x00 (0000ms, 6241ms total)
T1370 006:801 JLINK_WriteReg(R4, 0x00000000)  returns 0x00 (0000ms, 6241ms total)
T1370 006:801 JLINK_WriteReg(R5, 0x00000000)  returns 0x00 (0001ms, 6242ms total)
T1370 006:802 JLINK_WriteReg(R6, 0x00000000)  returns 0x00 (0000ms, 6242ms total)
T1370 006:802 JLINK_WriteReg(R7, 0x00000000)  returns 0x00 (0000ms, 6242ms total)
T1370 006:802 JLINK_WriteReg(R8, 0x00000000)  returns 0x00 (0001ms, 6243ms total)
T1370 006:803 JLINK_WriteReg(R9, 0x20000224)  returns 0x00 (0000ms, 6243ms total)
T1370 006:803 JLINK_WriteReg(R10, 0x00000000)  returns 0x00 (0000ms, 6243ms total)
T1370 006:803 JLINK_WriteReg(R11, 0x00000000)  returns 0x00 (0001ms, 6244ms total)
T1370 006:804 JLINK_WriteReg(R12, 0x00000000)  returns 0x00 (0000ms, 6244ms total)
T1370 006:804 JLINK_WriteReg(R13 (SP), 0x20004000)  returns 0x00 (0000ms, 6244ms total)
T1370 006:804 JLINK_WriteReg(R14, 0x20000001)  returns 0x00 (0000ms, 6244ms total)
T1370 006:805 JLINK_WriteReg(R15 (PC), 0x200001BE)  returns 0x00 (0000ms, 6245ms total)
T1370 006:805 JLINK_WriteReg(XPSR, 0x01000000)  returns 0x00 (0000ms, 6245ms total)
T1370 006:805 JLINK_WriteReg(MSP, 0x20004000)  returns 0x00 (0000ms, 6245ms total)
T1370 006:805 JLINK_WriteReg(PSP, 0x20004000)  returns 0x00 (0001ms, 6246ms total)
T1370 006:806 JLINK_WriteReg(CFBP, 0x00000000)  returns 0x00 (0000ms, 6246ms total)
T1370 006:806 JLINK_SetBPEx(Addr = 0x20000000, Type = 0xFFFFFFF2)  returns 0x00000010 (0000ms, 6246ms total)
T1370 006:806 JLINK_Go() -- CPU_ReadMem(4 bytes @ 0xE0001000) (0005ms, 6251ms total)
T1370 006:811 JLINK_IsHalted() -- CPU_ReadMem(2 bytes @ 0x20000000)  returns TRUE (0008ms, 6259ms total)
